Frequency,Z_real,Z_imag,Z_linKK_real,Z_linKK_imag,res_real,res_imag,chi_squared,mu,M
50118.72,0.0531344,-0.001823184,0.05311816182048658,-0.0018627741535151324,0.0003054260300467005,0.0007446563456866084,0.00014682782403034803,0.4787096028705049,26
39810.71,0.05491123,-0.006091058,0.0549379818725253,-0.006040174229240475,-0.00048421410462991943,-0.0009210061641560002,0.00014682782403034803,0.4787096028705049,26
31622.77,0.05725608,-0.0100059,0.05722057999818674,-0.009945508696378764,0.0006107652739982482,-0.0010390115273053169,0.00014682782403034803,0.4787096028705049,26
25118.86,0.06015779,-0.01348704,0.06015469991431643,-0.013571767927086285,5.0122138064212324e-05,0.0013743129784023747,0.00014682782403034803,0.4787096028705049,26
19952.62,0.06380063,-0.01670316,0.0638789492893668,-0.016723185060226926,-0.0011875400760200997,0.0003036360740304249,0.00014682782403034803,0.4787096028705049,26
15848.93,0.06835236,-0.01913594,0.06834175313003242,-0.019077801208527083,0.00014943360696487626,-0.000819081344537187,0.00014682782403034803,0.4787096028705049,26
12589.25,0.07328567,-0.02034849,0.07324495426380587,-0.020352323074689687,0.0005353233942182456,5.039659711399119e-05,0.00014682782403034803,0.4787096028705049,26
9999.997,0.07814667,-0.02041966,0.0781257758777885,-0.020469051439500563,0.00025868524797719095,0.0006115038787378432,0.00014682782403034803,0.4787096028705049,26
7943.28,0.08253162,-0.01959137,0.08253855963060962,-0.01962034239107124,-8.181109402782678e-05,0.00034155463647521307,0.00014682782403034803,0.4787096028705049,26
6309.571,0.08620961,-0.01819831,0.08623024853858884,-0.018182336164021748,-0.0002342375122187166,-0.00018129537534990208,0.00014682782403034803,0.4787096028705049,26
5011.871,0.08922486,-0.01659252,0.08918983879772102,-0.016532158148735272,0.0003858892404887868,-0.0006651110591089668,0.00014682782403034803,0.4787096028705049,26
3981.07,0.09160366,-0.01493477,0.09154687043337893,-0.014912776194337788,0.0006118699374771463,-0.00023696867745472385,0.00014682782403034803,0.4787096028705049,26
3162.276,0.09337558,-0.01339009,0.09343724702322762,-0.013438796860936911,-0.0006537318174803506,0.0005163411991936477,0.00014682782403034803,0.4787096028705049,26
2511.885,0.09493472,-0.01218153,0.09496228680920195,-0.012177271336614455,-0.00028801511390230027,-4.449406571045799e-05,0.00014682782403034803,0.4787096028705049,26
1995.261,0.09625842,-0.01118362,0.0962241726817654,-0.01118049022502495,0.0003534079160953972,-3.2297047149895024e-05,0.00014682782403034803,0.4787096028705049,26
1584.892,0.09736791,-0.01044181,0.09733479387955479,-0.01045826837662061,0.0003381742508884217,0.00016806917929058197,0.00014682782403034803,0.4787096028705049,26
1258.925,0.09839691,-0.009987799,0.09837412025259688,-0.009974092463116273,0.0002304263623510509,-0.0001385863291365515,0.00014682782403034803,0.4787096028705049,26
999.9994,0.09944839,-0.009682154,0.09937263550592447,-0.009693623647786042,0.0007581620940437542,0.00011478991826861112,0.00014682782403034803,0.4787096028705049,26
794.3277,0.1003148,-0.009660001,0.10035271647811897,-0.00961496179737647,-0.0003762345139379568,-0.0004469112994631487,0.00014682782403034803,0.4787096028705049,26
630.9569,0.101427,-0.009810326,0.10136170015682627,-0.009735808666405266,0.0006408206748063208,-0.0007312766107554018,0.00014682782403034803,0.4787096028705049,26
501.1869,0.1024277,-0.01000977,0.10244022240869126,-0.010019735830698345,-0.00012167643842994655,9.683494727469354e-05,0.00014682782403034803,0.4787096028705049,26
398.1069,0.1036548,-0.01044241,0.10358125602977468,-0.010429875979344382,0.0007059353618427384,-0.0001203118131881978,0.00014682782403034803,0.4787096028705049,26
316.2275,0.1047479,-0.01107203,0.10476107036120078,-0.01098298375288011,-0.00012503732135045787,-0.000845390953706759,0.00014682782403034803,0.4787096028705049,26
251.1884,0.1060032,-0.01179134,0.10600638463182495,-0.01172836767757467,-2.985863131788297e-05,-0.0005904190694202245,0.00014682782403034803,0.4787096028705049,26
199.5261,0.1074328,-0.01271659,0.10738782077799057,-0.01267116929260883,0.00041577054840445795,-0.0004198514686845311,0.00014682782403034803,0.4787096028705049,26
158.4892,0.1089096,-0.01374181,0.10893714620459677,-0.013761845862463415,-0.00025093760744161986,0.00018252065804330765,0.00014682782403034803,0.4787096028705049,26
125.8924,0.1106419,-0.0150889,0.11061707762779492,-0.014981254249940087,0.00022229114382167454,-0.0009639971840992358,0.00014682782403034803,0.4787096028705049,26
99.99991,0.1124201,-0.01644125,0.1124030633985541,-0.016392279784013423,0.00014994897444175635,-0.0004310151698213074,0.00014682782403034803,0.4787096028705049,26
79.43275,0.1143932,-0.01812757,0.11435516839066677,-0.01806777370781035,0.00032836651720390494,-0.0005162837059031703,0.00014682782403034803,0.4787096028705049,26
63.09567,0.1165622,-0.0201231,0.11656012041058289,-0.02000188590082561,1.7580959741274115e-05,-0.0010247504532009154,0.00014682782403034803,0.4787096028705049,26
50.11867,0.1189611,-0.02218907,0.11902899856555471,-0.022151251228873094,-0.0005610858081219339,-0.0003125187636375184,0.00014682782403034803,0.4787096028705049,26
39.81068,0.1216856,-0.02454817,0.12171893899216647,-0.024548072142848137,-0.0002685660905454576,-7.882995555743883e-07,0.00014682782403034803,0.4787096028705049,26
31.62274,0.1246365,-0.02744256,0.12465269442398359,-0.027300002512667995,-0.00012689376237886188,-0.001117029907402674,0.00014682782403034803,0.4787096028705049,26
25.11884,0.128235,-0.03052847,0.1279395951724486,-0.030468283796489963,0.002240991200319859,-0.0004565827632697946,0.00014682782403034803,0.4787096028705049,26
19.9526,0.1314895,-0.03409193,0.13165257668227986,-0.03402715397052795,-0.0012005302469878375,-0.00047686512610994224,0.00014682782403034803,0.4787096028705049,26
15.84891,0.1354981,-0.03812967,0.13576689090423194,-0.03798968048157648,-0.0019095577529798316,-0.0009945205214640935,0.00014682782403034803,0.4787096028705049,26
12.58924,0.1406126,-0.04304244,0.14029172418869193,-0.042495465564895966,0.0021820434337449807,-0.003719576024380419,0.00014682782403034803,0.4787096028705049,26
9.999988,0.1450071,-0.04761725,0.1454003446250869,-0.047673308040777705,-0.002576537437802704,0.0003672920913329856,0.00014682782403034803,0.4787096028705049,26
7.943272,0.1508215,-0.05306726,0.15130749421755005,-0.05344141938153426,-0.003039645888841761,0.0023401760448622327,0.00014682782403034803,0.4787096028705049,26
6.309565,0.1577489,-0.05977839,0.15799205696020022,-0.059554897621837,-0.0014413956609978626,-0.0013248271564383156,0.00014682782403034803,0.4787096028705049,26
5.011866,0.1656654,-0.06568749,0.16510207554946613,-0.06589818651614861,0.0031609617180536273,0.0011822735921400871,0.00014682782403034803,0.4787096028705049,26
3.981066,0.1714052,-0.07236895,0.17214372726804383,-0.07270800454079493,-0.0039693717445064905,0.0018223206810532358,0.00014682782403034803,0.4787096028705049,26
3.162273,0.1794702,-0.08008834,0.17871066318461604,-0.08054600097180371,0.0038647545794960264,0.002328718372579336,0.00014682782403034803,0.4787096028705049,26
2.511883,0.1847771,-0.09071881,0.1845413883564802,-0.09016985110077319,0.001145088619884717,-0.0026668457226054396,0.00014682782403034803,0.4787096028705049,26
1.995259,0.1894651,-0.1026772,0.18946782801100476,-0.10249990675126877,-1.2659068076563896e-05,-0.0008227119690087756,0.00014682782403034803,0.4787096028705049,26
1.584891,0.1934344,-0.1187037,0.19341233302744928,-0.11867048588966522,9.723168031884454e-05,-0.00014634829271312254,0.00014682782403034803,0.4787096028705049,26
1.258924,0.1964437,-0.140213,0.19644285542892231,-0.14004422303593278,3.4993625406055345e-06,-0.0006993038257867762,0.00014682782403034803,0.4787096028705049,26
0.999998,0.1987191,-0.1683835,0.19878091632248185,-0.16816875023808525,-0.00023733016178023657,-0.000824484435360351,0.00014682782403034803,0.4787096028705049,26
0.794327,0.2007159,-0.2049485,0.2007203729029777,-0.20476848880155102,-1.5592434948653895e-05,-0.0006275148188637017,0.00014682782403034803,0.4787096028705049,26
0.630956,0.2023402,-0.2520988,0.20252077715888558,-0.25184282826915444,-0.0005586172074044533,-0.0007918510532665785,0.00014682782403034803,0.4787096028705049,26
0.501186,0.2040589,-0.3120035,0.20435166818693554,-0.31185022261391554,-0.0007853043687134883,-0.0004111423518280031,0.00014682782403034803,0.4787096028705049,26
0.398106,0.2059245,-0.3880441,0.2063138547804375,-0.3879252887690161,-0.000886310401068117,-0.0002704567532634574,0.00014682782403034803,0.4787096028705049,26
0.316227,0.2080206,-0.4840793,0.20851194040606671,-0.48407484045042165,-0.0009325423708431966,-8.464027963767372e-06,0.00014682782403034803,0.4787096028705049,26
0.251188,0.2107417,-0.6053477,0.2111181869871021,-0.6053439016091658,-0.0005873597032737789,-5.925893297042726e-06,0.00014682782403034803,0.4787096028705049,26
0.199526,0.2137894,-0.7575061,0.21436667210155883,-0.7579863237656557,-0.0007334194335479884,0.0006101203249428029,0.00014682782403034803,0.4787096028705049,26
0.158489,0.2176433,-0.9488953,0.21845661683209486,-0.9497384912246476,-0.0008354261711051918,0.0008661126740761886,0.00014682782403034803,0.4787096028705049,26
0.125892,0.2224962,-1.189157,0.2234019723279464,-1.1902667602815356,-0.0007487002995849366,0.0009173142406954749,0.00014682782403034803,0.4787096028705049,26
0.1,0.2317021,-1.491171,0.22892522914634827,-1.4918531193253637,0.0018401268819054906,0.00045201457807023354,0.00014682782403034803,0.4787096028705049,26
